- 2026.9.30
 (1790761301.922480)  can1  205   [8]  1C 24 00 00 FF 9E 18 00
 (1790761301.923480)  can1  205   [8]  1C 24 00 00 FF 8D 18 00
 (1790761301.924482)  can1  205   [8]  1C 24 00 00 FF 8D 18 00
 (1790761301.925481)  can1  205   [8]  1C 23 00 00 FF 7F 18 00
 (1790761301.926481)  can1  205   [8]  1C 24 00 00 FF 9A 18 00
 (1790761301.927503)  can1  205   [8]  1C 24 00 00 FF 8D 18 00
 (1790761301.928490)  can1  205   [8]  1C 24 00 00 FF 90 18 00
 (1790761301.929481)  can1  205   [8]  1C 23 00 00 FF 7F 18 00
 (1790761301.930484)  can1  205   [8]  1C 24 00 00 FF 90 18 00
 (1790761301.931486)  can1  205   [8]  1C 24 00 00 FF 9E 18 00
 (1790761301.932489)  can1  205   [8]  1C 24 00 00 FF 9F 18 00
 (1790761301.933485)  can1  205   [8]  1C 23 00 00 FF 9A 18 00
 (1790761301.934482)  can1  205   [8]  1C 24 00 00 FF 7F 18 00
 (1790761301.935482)  can1  205   [8]  1C 23 00 00 FF 7F 18 00
 (1790761301.936483)  can1  205   [8]  1C 23 00 00 FF 9E 18 00
 (1790761301.937477)  can1  205   [8]  1C 23 00 00 FF 8D 18 00
 (1790761301.938500)  can1  205   [8]  1C 24 00 00 FF 91 18 00
 (1790761301.939491)  can1  205   [8]  1C 23 00 00 FF 8D 18 00
 (1790761301.940482)  can1  205   [8]  1C 24 00 00 FF 8D 18 00
 (1790761301.941482)  can1  205   [8]  1C 24 00 00 FF AB 18 00
 (1790761301.942484)  can1  205   [8]  1C 24 00 00 FF 9F 18 00
 (1790761301.943483)  can1  205   [8]  1C 24 00 00 FF 7F 18 00
 (1790761301.944483)  can1  205   [8]  1C 24 00 00 FF 9E 18 00
 (1790761301.945503)  can1  205   [8]  1C 23 00 00 FF 9E 18 00
 (1790761301.946492)  can1  205   [8]  1C 24 00 00 FF 9E 18 00
 (1790761301.947484)  can1  205   [8]  1C 24 00 00 FF AC 18 00
 (1790761301.948494)  can1  205   [8]  1C 24 00 00 FF 9E 18 00
 (1790761301.949493)  can1  205   [8]  1C 24 00 00 FF 90 18 00
 (1790761301.950484)  can1  205   [8]  1C 23 00 00 FF 9E 18 00
 (1790761301.951485)  can1  205   [8]  1C 24 00 00 FF C1 18 00
 (1790761301.952484)  can1  205   [8]  1C 24 00 00 FF 9F 18 00
 (1790761301.953485)  can1  205   [8]  1C 24 00 00 FF AC 18 00
 (1790761301.954485)  can1  205   [8]  1C 24 00 00 FF AB 18 00
 (1790761301.955484)  can1  205   [8]  1C 23 00 00 FF 7F 18 00
 (1790761301.956484)  can1  205   [8]  1C 24 00 00 FF 91 18 00
 (1790761301.957485)  can1  205   [8]  1C 24 00 00 FF 9E 18 00
 (1790761301.958484)  can1  205   [8]  1C 24 00 00 FF 91 18 00
 (1790761301.959464)  can1  205   [8]  1C 24 00 00 FF 9A 18 00
 (1790761301.960494)  can1  205   [8]  1C 24 00 00 FF 7F 18 00
 (1790761301.961485)  can1  205   [8]  1C 24 00 00 FF 8D 18 00
 (1790761301.962486)  can1  205   [8]  1C 24 00 00 FF B0 18 00
 (1790761301.963461)  can1  205   [8]  1C 24 00 00 FF 9E 18 00
 (1790761301.964500)  can1  205   [8]  1C 24 00 00 FF 9E 18 00
 (1790761301.965489)  can1  205   [8]  1C 23 00 00 FF 9E 18 00
 (1790761301.966487)  can1  205   [8]  1C 24 00 00 FF 8D 18 00
 (1790761301.967485)  can1  205   [8]  1C 24 00 00 FF 9E 18 00
 (1790761301.968486)  can1  205   [8]  1C 23 00 00 FF 8D 18 00
 (1790761301.969480)  can1  205   [8]  1C 24 00 00 FF AB 18 00
 (1790761301.970461)  can1  205   [8]  1C 24 00 00 FF 8D 18 00
 (1790761301.971494)  can1  205   [8]  1C 24 00 00 FF 90 18 00
 (1790761301.972487)  can1  205   [8]  1C 24 00 00 FF 91 18 00
 (1790761301.973486)  can1  205   [8]  1C 24 00 00 FF 7F 18 00
 (1790761301.974486)  can1  205   [8]  1C 24 00 00 FF 9E 18 00
 (1790761301.975488)  can1  205   [8]  1C 24 00 00 FF 8D 18 00
 (1790761301.976487)  can1  205   [8]  1C 24 00 00 FF 8D 18 00
 (1790761301.977487)  can1  205   [8]  1C 24 00 00 FF 91 18 00
 (1790761301.978462)  can1  205   [8]  1C 24 00 00 FF 8D 18 00
 (1790761301.979496)  can1  205   [8]  1C 24 00 00 FF 90 18 00
 (1790761301.980452)  can1  205   [8]  1C 24 00 00 FF 9E 18 00
 (1790761301.981492)  can1  205   [8]  1C 23 00 00 FF A2 18 00
 (1790761301.982489)  can1  205   [8]  1C 24 00 00 FF AB 18 00
 (1790761301.983573)  can1  205   [8]  1C 24 00 00 FF AF 18 00
 (1790761301.984489)  can1  205   [8]  1C 24 00 00 FF 9F 18 00
 (1790761301.985487)  can1  205   [8]  1C 24 00 00 FF 90 18 00
 (1790761301.986488)  can1  205   [8]  1C 23 00 00 FF 9E 18 00
 (1790761301.987489)  can1  205   [8]  1C 24 00 00 FF 9E 18 00
 (1790761301.988488)  can1  205   [8]  1C 24 00 00 FF 90 18 00
 (1790761301.989488)  can1  205   [8]  1C 24 00 00 FF 9E 18 00
 (1790761301.990489)  can1  205   [8]  1C 24 00 00 FF B0 18 00
 (1790761301.991467)  can1  205   [8]  1C 24 00 00 FF AB 18 00
 (1790761301.992453)  can1  205   [8]  1C 24 00 00 FF AB 18 00
 (1790761301.993491)  can1  205   [8]  1C 24 00 00 FF 9E 18 00
 (1790761301.994490)  can1  205   [8]  1C 24 00 00 FF 7F 18 00
 (1790761301.995532)  can1  205   [8]  1C 23 00 00 FF 8D 18 00
 (1790761301.996464)  can1  205   [8]  1C 24 00 00 FF AB 18 00
 (1790761301.997501)  can1  205   [8]  1C 24 00 00 FF 90 18 00
 (1790761301.998536)  can1  205   [8]  1C 23 00 00 FF 8D 18 00
 (1790761301.999535)  can1  205   [8]  1C 24 00 00 FF 9E 18 00
 (1790761302.000533)  can1  205   [8]  1C 24 00 00 FF BE 18 00
 (1790761302.001531)  can1  205   [8]  1C 24 00 00 FF 9E 18 00
 (1790761302.002497)  can1  205   [8]  1C 23 00 00 FF AF 18 00
 (1790761302.003532)  can1  205   [8]  1C 24 00 00 FF 9A 18 00
 (1790761302.004533)  can1  205   [8]  1C 23 00 00 FF AF 18 00
 (1790761302.005535)  can1  205   [8]  1C 24 00 00 FF AB 18 00
 (1790761302.006491)  can1  205   [8]  1C 23 00 00 FF 9E 18 00
 (1790761302.007533)  can1  205   [8]  1C 24 00 00 FF 9F 18 00
 (1790761302.008534)  can1  205   [8]  1C 24 00 00 FF 7F 18 00
 (1790761302.009490)  can1  205   [8]  1C 23 00 00 FF 9E 18 00
 (1790761302.010533)  can1  205   [8]  1C 23 00 00 FF 8D 18 00
 (1790761302.011511)  can1  205   [8]  1C 24 00 00 FF 90 18 00
 (1790761302.012507)  can1  205   [8]  1C 23 00 00 FF 9E 18 00
 (1790761302.013638)  can1  205   [8]  1C 24 00 00 FF 8D 18 00
 (1790761302.014500)  can1  205   [8]  1C 23 00 00 FF AB 18 00
 (1790761302.015537)  can1  205   [8]  1C 24 00 00 FF 8D 18 00
 (1790761302.016535)  can1  205   [8]  1C 24 00 00 FF AB 18 00
 (1790761302.017493)  can1  205   [8]  1C 24 00 00 FF 90 18 00
 (1790761302.018492)  can1  205   [8]  1C 24 00 00 FF 9E 18 00
 (1790761302.019534)  can1  205   [8]  1C 24 00 00 FF A2 18 00
 (1790761302.020493)  can1  205   [8]  1C 24 00 00 FF 9E 18 00
 (1790761302.021535)  can1  205   [8]  1C 24 00 00 FF 8D 18 00
 (1790761302.022535)  can1  205   [8]  1C 24 00 00 FF 91 18 00
 (1790761302.023514)  can1  205   [8]  1C 24 00 00 FF AB 18 00
 (1790761302.024501)  can1  205   [8]  1C 24 00 00 FF 7F 18 00
 (1790761302.025535)  can1  205   [8]  1C 23 00 00 FF 7F 18 00
 (1790761302.026494)  can1  205   [8]  1C 24 00 00 FF 7F 18 00
 (1790761302.027492)  can1  205   [8]  1C 24 00 00 FF 91 18 00
 (1790761302.028536)  can1  205   [8]  1C 23 00 00 FF 8D 18 00
 (1790761302.029494)  can1  205   [8]  1C 24 00 00 FF 8D 18 00
 (1790761302.030536)  can1  205   [8]  1C 23 00 00 FF A2 18 00
 (1790761302.031539)  can1  205   [8]  1C 23 00 00 FF 8D 18 00
 (1790761302.032515)  can1  205   [8]  1C 24 00 00 FF 7F 18 00
 (1790761302.033516)  can1  205   [8]  1C 24 00 00 FF 8D 18 00
 (1790761302.034501)  can1  205   [8]  1C 23 00 00 FF 9E 18 00
 (1790761302.035494)  can1  205   [8]  1C 24 00 00 FF 91 18 00
 (1790761302.036493)  can1  205   [8]  1C 24 00 00 FF 9E 18 00
 (1790761302.037493)  can1  205   [8]  1C 24 00 00 FF 8D 18 00
 (1790761302.038495)  can1  205   [8]  1C 24 00 00 FF 9F 18 00
 (1790761302.039494)  can1  205   [8]  1C 24 00 00 FF 9E 18 00
 (1790761302.040494)  can1  205   [8]  1C 23 00 00 FF 9E 18 00
 (1790761302.041495)  can1  205   [8]  1C 23 00 00 FF 90 18 00
 (1790761302.042581)  can1  205   [8]  1C 24 FF FF FF 9E 18 00
 (1790761302.043537)  can1  205   [8]  1C 24 00 00 FF BE 18 00
 (1790761302.044498)  can1  205   [8]  1C 23 00 00 FF 90 18 00
 (1790761302.045495)  can1  205   [8]  1C 24 00 00 FF 9E 18 00
 (1790761302.046495)  can1  205   [8]  1C 24 00 00 FF 8D 18 00
 (1790761302.047500)  can1  205   [8]  1C 23 00 00 FF 90 18 00
 (1790761302.048501)  can1  205   [8]  1C 23 00 00 FF 7F 18 00
 (1790761302.049496)  can1  205   [8]  1C 24 00 00 FF 7F 18 00
 (1790761302.050497)  can1  205   [8]  1C 23 00 00 FF AB 18 00
 (1790761302.051495)  can1  205   [8]  1C 24 00 00 FF 90 18 00
 (1790761302.052496)  can1  205   [8]  1C 23 00 00 FF 8D 18 00
 (1790761302.053515)  can1  205   [8]  1C 23 00 00 FF 9E 18 00
 (1790761302.054505)  can1  205   [8]  1C 24 00 00 FF 7F 18 00
 (1790761302.055518)  can1  205   [8]  1C 24 00 00 FF 9F 18 00
 (1790761302.056504)  can1  205   [8]  1C 23 00 00 FF 8D 18 00
 (1790761302.057496)  can1  205   [8]  1C 24 00 00 FF 7B 18 00
 (1790761302.058496)  can1  205   [8]  1C 23 00 00 FF 8D 18 00
 (1790761302.059498)  can1  205   [8]  1C 24 00 00 FF 9E 18 00
 (1790761302.060496)  can1  205   [8]  1C 23 00 00 FF 9E 18 00
 (1790761302.061497)  can1  205   [8]  1C 24 00 00 FF 9E 18 00
 (1790761302.062498)  can1  205   [8]  1C 24 00 00 FF 8D 18 00
 (1790761302.063499)  can1  205   [8]  1C 24 00 00 FF 90 18 00
 (1790761302.064500)  can1  205   [8]  1C 24 00 00 FF 90 18 00
 (1790761302.065494)  can1  205   [8]  1C 24 00 00 FF 9F 18 00
 (1790761302.066516)  can1  205   [8]  1C 24 00 00 FF 9E 18 00
 (1790761302.067506)  can1  205   [8]  1C 23 00 00 FF 90 18 00
 (1790761302.068498)  can1  205   [8]  1C 24 00 00 FF 9E 18 00
 (1790761302.069497)  can1  205   [8]  1C 24 00 00 FF 9E 18 00
 (1790761302.070497)  can1  205   [8]  1C 24 00 00 FF 7F 18 00
 (1790761302.071498)  can1  205   [8]  1C 23 00 00 FF 90 18 00
 (1790761302.072498)  can1  205   [8]  1C 23 00 00 FF 90 18 00
 (1790761302.073498)  can1  205   [8]  1C 24 00 00 FF 8D 18 00
 (1790761302.074499)  can1  205   [8]  1C 23 00 00 FF 8D 18 00
 (1790761302.075498)  can1  205   [8]  1C 24 00 00 FF 9E 18 00
 (1790761302.076503)  can1  205   [8]  1C 24 00 00 FF 8D 18 00
 (1790761302.077499)  can1  205   [8]  1C 24 00 00 FF 8D 18 00
 (1790761302.078499)  can1  205   [8]  1C 24 00 00 FF 9E 18 00
 (1790761302.079499)  can1  205   [8]  1C 23 00 00 FF 9A 18 00
 (1790761302.080502)  can1  205   [8]  1C 24 00 00 FF 90 18 00
 (1790761302.081503)  can1  205   [8]  1C 23 00 00 FF 9E 18 00
 (1790761302.082501)  can1  205   [8]  1C 23 00 00 FF 7B 18 00
 (1790761302.083500)  can1  205   [8]  1C 24 00 00 FF 90 18 00
 (1790761302.084500)  can1  205   [8]  1C 24 00 00 FF 8D 18 00
 (1790761302.085500)  can1  205   [8]  1C 23 00 00 FF 9E 18 00
 (1790761302.086500)  can1  205   [8]  1C 24 00 00 FF 90 18 00
 (1790761302.087485)  can1  205   [8]  1C 24 00 00 FF 8D 18 00
 (1790761302.088500)  can1  205   [8]  1C 24 00 00 FF 9E 18 00
 (1790761302.089501)  can1  205   [8]  1C 24 00 00 FF 8D 18 00
 (1790761302.090500)  can1  205   [8]  1C 23 00 00 FF 9E 18 00
 (1790761302.091501)  can1  205   [8]  1C 23 00 00 FF 8D 18 00
 (1790761302.092502)  can1  205   [8]  1C 24 00 00 FF 8D 18 00
 (1790761302.093500)  can1  205   [8]  1C 24 00 00 FF 9E 18 00
 (1790761302.094500)  can1  205   [8]  1C 24 00 00 FF 8D 18 00
 (1790761302.095501)  can1  205   [8]  1C 23 00 00 FF 9E 18 00
 (1790761302.096501)  can1  205   [8]  1C 24 00 00 FF AF 18 00
 (1790761302.097525)  can1  205   [8]  1C 24 00 00 FF 91 18 00
 (1790761302.098513)  can1  205   [8]  1C 23 00 00 FF 9A 18 00
 (1790761302.099503)  can1  205   [8]  1C 23 00 00 FF 9E 18 00
 (1790761302.100501)  can1  205   [8]  1C 23 00 00 FF 7F 18 00
 (1790761302.101502)  can1  205   [8]  1C 23 00 00 FF 9A 18 00
 (1790761302.102501)  can1  205   [8]  1C 24 00 00 FF 6D 18 00
 (1790761302.103502)  can1  205   [8]  1C 23 00 00 FF AB 18 00
 (1790761302.104502)  can1  205   [8]  1C 24 00 00 FF 8D 18 00
 (1790761302.105501)  can1  205   [8]  1C 24 00 00 FF 8D 18 00
 (1790761302.106501)  can1  205   [8]  1C 24 00 00 FF 8D 18 00
 (1790761302.107503)  can1  205   [8]  1C 23 00 00 FF 9A 18 00
 (1790761302.108507)  can1  205   [8]  1C 24 00 00 FF 7F 18 00
 (1790761302.109503)  can1  205   [8]  1C 24 00 00 FF 7F 18 00
 (1790761302.110503)  can1  205   [8]  1C 24 00 00 FF 8D 18 00
 (1790761302.111502)  can1  205   [8]  1C 23 00 00 FF 90 18 00
 (1790761302.112502)  can1  205   [8]  1C 23 00 00 FF 7B 18 00
 (1790761302.113507)  can1  205   [8]  1C 24 00 00 FF 9E 18 00
 (1790761302.114508)  can1  205   [8]  1C 24 00 00 FF 9E 18 00
 (1790761302.115504)  can1  205   [8]  1C 24 00 00 FF 7F 18 00
 (1790761302.116504)  can1  205   [8]  1C 24 00 00 FF 8D 18 00
 (1790761302.117503)  can1  205   [8]  1C 24 00 00 FF 8D 18 00
 (1790761302.118503)  can1  205   [8]  1C 24 00 00 FF 8D 18 00
 (1790761302.119482)  can1  205   [8]  1C 24 00 00 FF 9F 18 00
 (1790761302.120470)  can1  205   [8]  1C 24 00 00 FF 90 18 00
 (1790761302.121504)  can1  205   [8]  1C 24 00 00 FF 7F 18 00
 (1790761302.122505)  can1  205   [8]  1C 24 00 00 FF 6E 18 00
 (1790761302.123503)  can1  205   [8]  1C 24 00 00 FF 9E 18 00
 (1790761302.124504)  can1  205   [8]  1C 24 00 00 FF 8D 18 00
 (1790761302.125506)  can1  205   [8]  1C 23 00 00 FF 90 18 00
 (1790761302.126504)  can1  205   [8]  1C 23 00 00 FF 9E 18 00
 (1790761302.127505)  can1  205   [8]  1C 24 00 00 FF 90 18 00
 (1790761302.128505)  can1  205   [8]  1C 23 00 00 FF BD 18 00
 (1790761302.129516)  can1  205   [8]  1C 23 00 00 FF 7F 18 00
 (1790761302.130469)  can1  205   [8]  1C 24 00 00 FF 90 18 00
 (1790761302.131509)  can1  205   [8]  1C 24 00 00 FF 7F 18 00
 (1790761302.132505)  can1  205   [8]  1C 24 00 00 FF 91 18 00
 (1790761302.133549)  can1  205   [8]  1C 23 00 00 FF 8D 18 00
 (1790761302.134506)  can1  205   [8]  1C 23 00 00 FF AF 18 00
 (1790761302.135505)  can1  205   [8]  1C 24 00 00 FF 9E 18 00
 (1790761302.136505)  can1  205   [8]  1C 24 00 00 FF 7F 18 00
 (1790761302.137480)  can1  205   [8]  1C 24 00 00 FF 91 18 00
 (1790761302.138515)  can1  205   [8]  1C 24 00 00 FF 9E 18 00
 (1790761302.139549)  can1  205   [8]  1C 24 00 00 FF 90 18 00
 (1790761302.140468)  can1  205   [8]  1C 24 00 00 FF 8D 18 00
 (1790761302.141505)  can1  205   [8]  1C 24 00 00 FF 90 18 00
 (1790761302.142548)  can1  205   [8]  1C 24 00 00 FF 90 18 00
 (1790761302.143507)  can1  205   [8]  1C 23 00 00 FF 9E 18 00
 (1790761302.144506)  can1  205   [8]  1C 24 00 00 FF AB 18 00
 (1790761302.145507)  can1  205   [8]  1C 24 00 00 FF 90 18 00
 (1790761302.146507)  can1  205   [8]  1C 24 00 00 FF 8D 18 00
 (1790761302.147525)  can1  205   [8]  1C 24 00 00 FF 90 18 00
 (1790761302.148508)  can1  205   [8]  1C 24 00 00 FF 8D 18 00
 (1790761302.149508)  can1  205   [8]  1C 24 00 00 FF 7B 18 00
 (1790761302.150507)  can1  205   [8]  1C 24 00 00 FF 9E 18 00
 (1790761302.151530)  can1  205   [8]  1C 24 00 00 FF 8D 18 00
 (1790761302.152515)  can1  205   [8]  1C 23 00 00 FF 9E 18 00
 (1790761302.153507)  can1  205   [8]  1C 23 00 00 FF 9E 18 00
 (1790761302.154507)  can1  205   [8]  1C 23 00 00 FF 7F 18 00
 (1790761302.155508)  can1  205   [8]  1C 24 00 00 FF 9E 18 00
 (1790761302.156508)  can1  205   [8]  1C 23 00 00 FF 8D 18 00
 (1790761302.157551)  can1  205   [8]  1C 24 00 00 FF 7F 18 00
 (1790761302.158509)  can1  205   [8]  1C 24 00 00 FF 7E 18 00
 (1790761302.159508)  can1  205   [8]  1C 23 00 00 FF AF 18 00
 (1790761302.160507)  can1  205   [8]  1C 24 00 00 FF 90 18 00
 (1790761302.161509)  can1  205   [8]  1C 23 00 00 FF 8D 18 00
 (1790761302.162517)  can1  205   [8]  1C 23 00 00 FF 8D 18 00
 (1790761302.163510)  can1  205   [8]  1C 23 00 00 FF 9E 18 00
 (1790761302.164513)  can1  205   [8]  1C 23 00 00 FF 8D 18 00
 (1790761302.165510)  can1  205   [8]  1C 24 00 00 FF 8D 18 00
 (1790761302.166509)  can1  205   [8]  1C 24 00 00 FF 8D 18 00
 (1790761302.167510)  can1  205   [8]  1C 24 00 00 FF 8D 18 00
 (1790761302.168509)  can1  205   [8]  1C 24 00 00 FF AB 18 00
 (1790761302.169509)  can1  205   [8]  1C 24 00 00 FF 91 18 00
 (1790761302.170510)  can1  205   [8]  1C 24 00 00 FF 9E 18 00
 (1790761302.171518)  can1  205   [8]  1C 23 00 00 FF 9E 18 00
 (1790761302.172514)  can1  205   [8]  1C 24 00 00 FF 7F 18 00
 (1790761302.173513)  can1  205   [8]  1C 24 00 00 FF 9E 18 00
 (1790761302.174510)  can1  205   [8]  1C 24 00 00 FF 9F 18 00
 (1790761302.175511)  can1  205   [8]  1C 24 00 00 FF 9E 18 00
 (1790761302.176510)  can1  205   [8]  1C 23 00 00 FF 9E 18 00
 (1790761302.177510)  can1  205   [8]  1C 24 00 00 FF 90 18 00
 (1790761302.178532)  can1  205   [8]  1C 24 00 00 FF 90 18 00
 (1790761302.179519)  can1  205   [8]  1C 24 00 00 FF A2 18 00
 (1790761302.180518)  can1  205   [8]  1C 23 00 00 FF 7F 18 00
 (1790761302.181516)  can1  205   [8]  1C 24 00 00 FF 7F 18 00
 (1790761302.182512)  can1  205   [8]  1C 24 00 00 FF 9E 18 00
 (1790761302.183532)  can1  205   [8]  1C 24 00 00 FF 8D 18 00
 (1790761302.184519)  can1  205   [8]  1C 23 00 00 FF 8D 18 00
 (1790761302.185512)  can1  205   [8]  1C 24 00 00 FF 9E 18 00
 (1790761302.186511)  can1  205   [8]  1C 23 00 00 FF 9E 18 00
 (1790761302.187511)  can1  205   [8]  1C 24 00 00 FF 9E 18 00
 (1790761302.188512)  can1  205   [8]  1C 24 00 00 FF 6D 18 00
 (1790761302.189511)  can1  205   [8]  1C 23 00 00 FF 6D 18 00
 (1790761302.190511)  can1  205   [8]  1C 24 00 00 FF 8D 18 00
 (1790761302.191513)  can1  205   [8]  1C 24 00 00 FF 7F 18 00
 (1790761302.192512)  can1  205   [8]  1C 24 00 00 FF 8D 18 00
 (1790761302.193511)  can1  205   [8]  1C 24 00 00 FF 9E 18 00
 (1790761302.194531)  can1  205   [8]  1C 24 00 00 FF A2 18 00
 (1790761302.195521)  can1  205   [8]  1C 24 00 00 FF 8D 18 00
 (1790761302.196514)  can1  205   [8]  1C 24 00 00 FF 90 18 00
 (1790761302.197515)  can1  205   [8]  1C 24 00 00 FF 8D 18 00
 (1790761302.198515)  can1  205   [8]  1C 24 00 00 FF 8D 18 00
 (1790761302.199515)  can1  205   [8]  1C 24 00 00 FF 90 18 00
 (1790761302.200516)  can1  205   [8]  1C 24 00 00 FF 90 18 00
 (1790761302.201513)  can1  205   [8]  1C 24 00 00 FF 9E 18 00
 (1790761302.202513)  can1  205   [8]  1C 24 00 00 FF 72 18 00
 (1790761302.203515)  can1  205   [8]  1C 24 00 00 FF 7F 18 00
 (1790761302.204518)  can1  205   [8]  1C 24 00 00 FF 90 18 00
 (1790761302.205513)  can1  205   [8]  1C 24 00 00 FF 8D 18 00
 (1790761302.206533)  can1  205   [8]  1C 24 00 00 FF 9A 18 00
 (1790761302.207522)  can1  205   [8]  1C 24 00 00 FF 9E 18 00
 (1790761302.208514)  can1  205   [8]  1C 24 00 00 FF 90 18 00
 (1790761302.209514)  can1  205   [8]  1C 23 00 00 FF 7F 18 00
 (1790761302.210513)  can1  205   [8]  1C 24 00 00 FF 8D 18 00
 (1790761302.211516)  can1  205   [8]  1C 24 00 00 FF 8D 18 00
 (1790761302.212515)  can1  205   [8]  1C 24 00 00 FF 7F 18 00
 (1790761302.213645)  can1  205   [8]  1C 24 00 00 FF 90 18 00
 (1790761302.214520)  can1  205   [8]  1C 23 00 00 FF 90 18 00
 (1790761302.215538)  can1  205   [8]  1C 23 00 00 FF 8D 18 00
 (1790761302.216524)  can1  205   [8]  1C 24 00 00 FF 90 18 00
 (1790761302.217516)  can1  205   [8]  1C 23 00 00 FF 9E 18 00
 (1790761302.218516)  can1  205   [8]  1C 24 00 00 FF 90 18 00
 (1790761302.219515)  can1  205   [8]  1C 24 00 00 FF 7F 18 00
 (1790761302.220515)  can1  205   [8]  1C 24 00 00 FF 7F 18 00
 (1790761302.221516)  can1  205   [8]  1C 24 00 00 FF 90 18 00
 (1790761302.222516)  can1  205   [8]  1C 23 00 00 FF AB 18 00
 (1790761302.223516)  can1  205   [8]  1C 24 00 00 FF 8D 18 00
 (1790761302.224516)  can1  205   [8]  1C 23 00 00 FF 6D 18 00
 (1790761302.225513)  can1  205   [8]  1C 24 00 00 FF 7B 18 00
 (1790761302.226523)  can1  205   [8]  1C 24 00 00 FF 7F 18 00
 (1790761302.227517)  can1  205   [8]  1C 23 00 00 FF 7F 18 00
 (1790761302.228517)  can1  205   [8]  1C 24 00 00 FF 9E 18 00
 (1790761302.229517)  can1  205   [8]  1C 23 00 00 FF 8D 18 00
 (1790761302.230493)  can1  205   [8]  1C 24 00 00 FF 8D 18 00
 (1790761302.231529)  can1  205   [8]  1C 24 00 00 FF 7F 18 00
 (1790761302.232517)  can1  205   [8]  1C 24 00 00 FF 9E 18 00
 (1790761302.233518)  can1  205   [8]  1C 24 00 00 FF 90 18 00
 (1790761302.234516)  can1  205   [8]  1C 24 00 00 FF 91 18 00
 (1790761302.235517)  can1  205   [8]  1C 23 00 00 FF 9E 18 00
 (1790761302.236522)  can1  205   [8]  1C 24 00 00 FF 8D 18 00
 (1790761302.237517)  can1  205   [8]  1C 24 00 00 FF 9A 18 00
 (1790761302.238517)  can1  205   [8]  1C 24 00 00 FF 9E 18 00
 (1790761302.239518)  can1  205   [8]  1C 24 00 00 FF 9E 18 00
 (1790761302.240517)  can1  205   [8]  1C 24 00 00 FF 8D 18 00
 (1790761302.241518)  can1  205   [8]  1C 24 00 00 FF 90 18 00
 (1790761302.242518)  can1  205   [8]  1C 24 00 00 FF 9E 18 00
 (1790761302.243517)  can1  205   [8]  1C 24 00 00 FF AB 18 00
 (1790761302.244517)  can1  205   [8]  1C 24 00 00 FF 90 18 00
 (1790761302.245519)  can1  205   [8]  1C 23 00 00 FF 9E 18 00
 (1790761302.246518)  can1  205   [8]  1C 24 00 00 FF 7F 18 00
 (1790761302.247495)  can1  205   [8]  1C 24 00 00 FF 9E 18 00
 (1790761302.248488)  can1  205   [8]  1C 24 00 00 FF 90 18 00
 (1790761302.249519)  can1  205   [8]  1C 24 00 00 FF 8D 18 00
 (1790761302.250518)  can1  205   [8]  1C 24 00 00 FF 9E 18 00
 (1790761302.251519)  can1  205   [8]  1C 23 00 00 FF 90 18 00
 (1790761302.252518)  can1  205   [8]  1C 24 00 00 FF 9E 18 00
 (1790761302.253520)  can1  205   [8]  1C 24 00 00 FF 8D 18 00
 (1790761302.254520)  can1  205   [8]  1C 24 00 00 FF 9F 18 00
 (1790761302.255519)  can1  205   [8]  1C 24 00 00 FF 9F 18 00
 (1790761302.256519)  can1  205   [8]  1C 23 00 00 FF AF 18 00
 (1790761302.257518)  can1  205   [8]  1C 24 00 00 FF 90 18 00
 (1790761302.258520)  can1  205   [8]  1C 23 00 00 FF 9E 18 00
 (1790761302.259520)  can1  205   [8]  1C 24 00 00 FF AF 18 00
 (1790761302.260521)  can1  205   [8]  1C 24 00 00 FF 9E 18 00
 (1790761302.261520)  can1  205   [8]  1C 24 00 00 FF 90 18 00
 (1790761302.262520)  can1  205   [8]  1C 24 00 00 FF 7F 18 00
 (1790761302.263521)  can1  205   [8]  1C 24 00 00 FF 9E 18 00
 (1790761302.264523)  can1  205   [8]  1C 24 00 00 FF 8D 18 00
 (1790761302.265523)  can1  205   [8]  1C 23 00 00 FF 90 18 00
 (1790761302.266521)  can1  205   [8]  1C 23 00 00 FF 7F 18 00
 (1790761302.267520)  can1  205   [8]  1C 24 00 00 FF A2 18 00
 (1790761302.268505)  can1  205   [8]  1C 24 00 00 FF 9E 18 00
 (1790761302.269522)  can1  205   [8]  1C 23 00 00 FF 9E 18 00
 (1790761302.270521)  can1  205   [8]  1C 23 00 00 FF 8D 18 00
 (1790761302.271523)  can1  205   [8]  1C 24 00 00 FF AF 18 00
 (1790761302.272522)  can1  205   [8]  1C 24 00 00 FF 9E 18 00
 (1790761302.273521)  can1  205   [8]  1C 24 00 00 FF 9E 18 00
 (1790761302.274521)  can1  205   [8]  1C 24 00 00 FF 8D 18 00
 (1790761302.275522)  can1  205   [8]  1C 24 00 00 FF 9A 18 00
 (1790761302.276522)  can1  205   [8]  1C 23 00 00 FF 7F 18 00
 (1790761302.277543)  can1  205   [8]  1C 24 00 00 FF 7F 18 00
 (1790761302.278486)  can1  205   [8]  1C 24 00 00 FF 9A 18 00
 (1790761302.279530)  can1  205   [8]  1C 24 00 00 FF 8D 18 00
 (1790761302.280527)  can1  205   [8]  1C 23 00 00 FF 90 18 00
 (1790761302.281527)  can1  205   [8]  1C 24 00 00 FF 90 18 00
 (1790761302.282525)  can1  205   [8]  1C 24 00 00 FF 9E 18 00
 (1790761302.283566)  can1  205   [8]  1C 24 00 00 FF BE 18 00
 (1790761302.284542)  can1  205   [8]  1C 24 00 00 FF 7F 18 00
 (1790761302.285531)  can1  205   [8]  1C 23 00 00 FF 7E 18 00
 (1790761302.286522)  can1  205   [8]  1C 24 00 00 FF 90 18 00
 (1790761302.287523)  can1  205   [8]  1C 24 00 00 FF 7B 18 00
 (1790761302.288523)  can1  205   [8]  1C 24 00 00 FF AF 18 00
 (1790761302.289521)  can1  205   [8]  1C 24 00 00 FF 9E 18 00
 (1790761302.290524)  can1  205   [8]  1C 24 00 00 FF 90 18 00
 (1790761302.291523)  can1  205   [8]  1C 24 00 00 FF 9E 18 00
 (1790761302.292523)  can1  205   [8]  1C 24 00 00 FF 9E 18 00
 (1790761302.293525)  can1  205   [8]  1C 23 00 00 FF 8D 18 00
 (1790761302.294524)  can1  205   [8]  1C 23 00 00 FF 90 18 00
 (1790761302.295524)  can1  205   [8]  1C 24 00 00 FF 7F 18 00
 (1790761302.296525)  can1  205   [8]  1C 23 00 00 FF AB 18 00
 (1790761302.297536)  can1  205   [8]  1C 23 00 00 FF 90 18 00
 (1790761302.298526)  can1  205   [8]  1C 24 00 00 FF 7F 18 00
 (1790761302.299525)  can1  205   [8]  1C 24 00 00 FF 8D 18 00
 (1790761302.300544)  can1  205   [8]  1C 24 00 00 FF 8D 18 00
 (1790761302.301533)  can1  205   [8]  1C 24 00 00 FF B0 18 00
 (1790761302.302525)  can1  205   [8]  1C 23 00 00 FF 7F 18 00
 (1790761302.303524)  can1  205   [8]  1C 23 00 00 FF 9E 18 00
 (1790761302.304524)  can1  205   [8]  1C 24 00 00 FF 9E 18 00
 (1790761302.305569)  can1  205   [8]  1C 24 FF FF FF 90 18 00
 (1790761302.306529)  can1  205   [8]  1C 24 00 00 FF 90 18 00
 (1790761302.307525)  can1  205   [8]  1C 24 00 00 FF 9E 18 00
 (1790761302.308526)  can1  205   [8]  1C 23 00 00 FF 9E 18 00
 (1790761302.309525)  can1  205   [8]  1C 24 00 00 FF 8D 18 00
 (1790761302.310525)  can1  205   [8]  1C 24 00 00 FF 7F 18 00
 (1790761302.311544)  can1  205   [8]  1C 23 00 00 FF 7F 18 00
 (1790761302.312536)  can1  205   [8]  1C 24 00 00 FF 91 18 00
 (1790761302.313525)  can1  205   [8]  1C 24 00 00 FF 90 18 00
 (1790761302.314533)  can1  205   [8]  1C 24 00 00 FF 8D 18 00
 (1790761302.315527)  can1  205   [8]  1C 24 00 00 FF 90 18 00
 (1790761302.316526)  can1  205   [8]  1C 23 00 00 FF 9E 18 00
 (1790761302.317547)  can1  205   [8]  1C 24 00 00 FF AB 18 00
